###RTT Client: ************************************************************ 
###RTT Client: *               SEGGER Microcontroller GmbH                * 
###RTT Client: *   Solutions for real time microcontroller applications   * 
###RTT Client: ************************************************************ 
###RTT Client: *                                                          * 
###RTT Client: *       (c) 2012 - 2016  SEGGER Microcontroller GmbH       * 
###RTT Client: *                                                          * 
###RTT Client: *     www.segger.com     Support: support@segger.com       * 
###RTT Client: *                                                          * 
###RTT Client: ************************************************************ 
###RTT Client: *                                                          * 
###RTT Client: * SEGGER J-Link RTT Client   Compiled Oct 23 2020 18:02:27 * 
###RTT Client: *                                                          * 
###RTT Client: ************************************************************ 

###RTT Client: -----------------------------------------------
###RTT Client: Connecting to J-Link RTT Server via localhost:19021 ...

###RTT Client: Connected.



SEGGER J-Link V6.86f - Real time terminal output
J-Link OpenSDA compiled Oct 13 2015 12:09:57 V1.0, SN=621000000
Process: JLink.exe
Register 0x04 Value: 0x026F
Register 0x04 Value: 0x0267
Register 0x04 Value: 0x024D
Register 0x04 Value: 0x024E
Register 0x04 Value: 0x0243
Register 0x04 Value: 0x024B
Register 0x04 Value: 0x0244
Register 0x04 Value: 0x0228
Register 0x04 Value: 0x0263
Register 0x04 Value: 0x0255
Register 0x04 Value: 0x026B
Register 0x04 Value: 0x0232
Register 0x04 Value: 0x0254
Register 0x04 Value: 0x026B
Register 0x04 Value: 0x026F
Register 0x04 Value: 0x024A
Register 0x04 Value: 0x0241
Register 0x04 Value: 0x0264
Register 0x04 Value: 0x0250
Register 0x04 Value: 0x0252
Register 0x04 Value: 0x0259
Register 0x04 Value: 0x026F
Register 0x04 Value: 0x0243
Register 0x04 Value: 0x0263
Register 0x04 Value: 0x0263
Register 0x04 Value: 0x026F
Register 0x04 Value: 0x026B
Register 0x04 Value: 0x0250
Register 0x04 Value: 0x022C
Register 0x04 Value: 0x0237
Register 0x04 Value: 0x026D
Register 0x04 Value: 0x0264
Register 0x04 Value: 0x0262
Register 0x04 Value: 0x0265
Register 0x04 Value: 0x0254
Register 0x04 Value: 0x025B
Register 0x04 Value: 0x0250
Register 0x04 Value: 0x024B
Register 0x04 Value: 0x025D
Register 0x04 Value: 0x0226
Register 0x04 Value: 0x022C
Register 0x04 Value: 0x023C
Register 0x04 Value: 0x0276
Register 0x04 Value: 0x025C
Register 0x04 Value: 0x0223
Register 0x04 Value: 0x0250
Register 0x04 Value: 0x025D
Register 0x04 Value: 0x026E
Register 0x04 Value: 0x0229
Register 0x04 Value: 0x0266
Register 0x04 Value: 0x023A
Register 0x04 Value: 0x024D
Register 0x04 Value: 0x0222
Register 0x04 Value: 0x024C
Register 0x04 Value: 0x0255
Register 0x04 Value: 0x0262
Register 0x04 Value: 0x0265
Register 0x04 Value: 0x023C
Register 0x04 Value: 0x0243
Register 0x04 Value: 0x024D
Register 0x04 Value: 0x0238
Register 0x04 Value: 0x0261
Register 0x04 Value: 0x0262
Register 0x04 Value: 0x026F
Register 0x04 Value: 0x0253
Register 0x04 Value: 0x0268
Register 0x04 Value: 0x0259
Register 0x04 Value: 0x0247
Register 0x04 Value: 0x023D
Register 0x04 Value: 0x0262
Register 0x04 Value: 0x0243
Register 0x04 Value: 0x026F
Register 0x04 Value: 0x0249
Register 0x04 Value: 0x022D
Register 0x04 Value: 0x0249
Register 0x04 Value: 0x0275
Register 0x04 Value: 0x024E
Register 0x04 Value: 0x026A
Register 0x04 Value: 0x026F
Register 0x04 Value: 0x0265
Register 0x04 Value: 0x0255
Register 0x04 Value: 0x0263
Register 0x04 Value: 0x0270
Register 0x04 Value: 0x0260
Register 0x04 Value: 0x0222
Register 0x04 Value: 0x024F
Register 0x04 Value: 0x0242
Register 0x04 Value: 0x0274
Register 0x04 Value: 0x0255
Register 0x04 Value: 0x0255
Register 0x04 Value: 0x023C
Register 0x04 Value: 0x0254
Register 0x04 Value: 0x024F
Register 0x04 Value: 0x0224
Register 0x04 Value: 0x026C
Register 0x04 Value: 0x026A
Register 0x04 Value: 0x0220
Register 0x04 Value: 0x0259
Register 0x04 Value: 0x026A
Register 0x04 Value: 0x0247
Register 0x04 Value: 0x0250
Register 0x04 Value: 0x0225
Register 0x04 Value: 0x023E
Register 0x04 Value: 0x026C
Register 0x04 Value: 0x022D
Register 0x04 Value: 0x0252
Register 0x04 Value: 0x0267
Register 0x04 Value: 0x023A
Register 0x04 Value: 0x026C
Register 0x04 Value: 0x0221
Register 0x04 Value: 0x0268
Register 0x04 Value: 0x0241
Register 0x04 Value: 0x0273
Register 0x04 Value: 0x022A
Register 0x04 Value: 0x0263
Register 0x04 Value: 0x0273
Register 0x04 Value: 0x026C
Register 0x04 Value: 0x0266
Register 0x04 Value: 0x0267
Register 0x04 Value: 0x0267
Register 0x04 Value: 0x0244
Register 0x04 Value: 0x0226
Register 0x04 Value: 0x0235
Register 0x04 Value: 0x024B
Register 0x04 Value: 0x0265
Register 0x04 Value: 0x023F
Register 0x04 Value: 0x0230
Register 0x04 Value: 0x026D
Register 0x04 Value: 0x0273
Register 0x04 Value: 0x0233
Register 0x04 Value: 0x022A
Register 0x04 Value: 0x026B
Register 0x04 Value: 0x0274
Register 0x04 Value: 0x0232
Register 0x04 Value: 0x0233
Register 0x04 Value: 0x0270
Register 0x04 Value: 0x026A
Register 0x04 Value: 0x0230
Register 0x04 Value: 0x0269
Register 0x04 Value: 0x0251
Register 0x04 Value: 0x0273
Register 0x04 Value: 0x023E
Register 0x04 Value: 0x0238
Register 0x04 Value: 0x0270
Register 0x04 Value: 0x0250
Register 0x04 Value: 0x0252
Register 0x04 Value: 0x025B
Register 0x04 Value: 0x0264
Register 0x04 Value: 0x026D
Register 0x04 Value: 0x0211
Register 0x04 Value: 0x0249
Register 0x04 Value: 0x026B
Register 0x04 Value: 0x0271
Register 0x04 Value: 0x0224
Register 0x04 Value: 0x024D
Register 0x04 Value: 0x026A
Register 0x04 Value: 0x0271
Register 0x04 Value: 0x0238
Register 0x04 Value: 0x0262
Register 0x04 Value: 0x0269
Register 0x04 Value: 0x0272
Register 0x04 Value: 0x0215
Register 0x04 Value: 0x0240
Register 0x04 Value: 0x0241
Register 0x04 Value: 0x026C
Register 0x04 Value: 0x0246
Register 0x04 Value: 0x022F
Register 0x04 Value: 0x0236
Register 0x04 Value: 0x0271
Register 0x04 Value: 0x025C
Register 0x04 Value: 0x0263
Register 0x04 Value: 0x0265
Register 0x04 Value: 0x0269
Register 0x04 Value: 0x0269
Register 0x04 Value: 0x023E
Register 0x04 Value: 0x026F
Register 0x04 Value: 0x026B
Register 0x04 Value: 0x0274
Register 0x04 Value: 0x022E
Register 0x04 Value: 0x0253
Register 0x04 Value: 0x023C
Register 0x04 Value: 0x0252
Register 0x04 Value: 0x023E
Register 0x04 Value: 0x0262
Register 0x04 Value: 0x0243
Register 0x04 Value: 0x026C
Register 0x04 Value: 0x025B
Register 0x04 Value: 0x026F
Register 0x04 Value: 0x023A
Register 0x04 Value: 0x025A
Register 0x04 Value: 0x0234
Register 0x04 Value: 0x0268
Register 0x04 Value: 0x0254
Register 0x04 Value: 0x0267
Register 0x04 Value: 0x025F
Register 0x04 Value: 0x026E
Register 0x04 Value: 0x0246
Register 0x04 Value: 0x0276
Register 0x04 Value: 0x0260
Register 0x04 Value: 0x0271
Register 0x04 Value: 0x024A
Register 0x04 Value: 0x0246
Register 0x04 Value: 0x022C
Register 0x04 Value: 0x025E
Register 0x04 Value: 0x0266
Register 0x04 Value: 0x0272
Register 0x04 Value: 0x0254
Register 0x04 Value: 0x0251
Register 0x04 Value: 0x0259
Register 0x04 Value: 0x0275
Register 0x04 Value: 0x0232
Register 0x04 Value: 0x0235
Register 0x04 Value: 0x0272
Register 0x04 Value: 0x026D
Register 0x04 Value: 0x022C
Register 0x04 Value: 0x0234
Register 0x04 Value: 0x026E
Register 0x04 Value: 0x0270
Register 0x04 Value: 0x021D
Register 0x04 Value: 0x0263
Register 0x04 Value: 0x025F
Register 0x04 Value: 0x0251
Register 0x04 Value: 0x0250
Register 0x04 Value: 0x022B
Register 0x04 Value: 0x025D
Register 0x04 Value: 0x026C
Register 0x04 Value: 0x024A
Register 0x04 Value: 0x0262
Register 0x04 Value: 0x023A
Register 0x04 Value: 0x0274
Register 0x04 Value: 0x0264
Register 0x04 Value: 0x025D
Register 0x04 Value: 0x0261
Register 0x04 Value: 0x0268
Register 0x04 Value: 0x023A
Register 0x04 Value: 0x0247
Register 0x04 Value: 0x026C
Register 0x04 Value: 0x025A
Register 0x04 Value: 0x0238
Register 0x04 Value: 0x025C
Register 0x04 Value: 0x0241
Register 0x04 Value: 0x0255
Register 0x04 Value: 0x0262
Register 0x04 Value: 0x025D
Register 0x04 Value: 0x0267
Register 0x04 Value: 0x0258
Register 0x04 Value: 0x0250
Register 0x04 Value: 0x023C
Register 0x04 Value: 0x0267
Register 0x04 Value: 0x0268
Register 0x04 Value: 0x0250
Register 0x04 Value: 0x0257
Register 0x04 Value: 0x0233
Register 0x04 Value: 0x0254
Register 0x04 Value: 0x0273
Register 0x04 Value: 0x025A
Register 0x04 Value: 0x025B
Register 0x04 Value: 0x0261
Register 0x04 Value: 0x0269
Register 0x04 Value: 0x0231
Register 0x04 Value: 0x023B
Register 0x04 Value: 0x026C
Register 0x04 Value: 0x0274
Register 0x04 Value: 0x0223
Register 0x04 Value: 0x0264
Register 0x04 Value: 0x026D
Register 0x04 Value: 0x024C
Register 0x04 Value: 0x0251
Register 0x04 Value: 0x0241
Register 0x04 Value: 0x024D
Register 0x04 Value: 0x025C
Register 0x04 Value: 0x021F
Register 0x04 Value: 0x0243
Register 0x04 Value: 0x023B
Register 0x04 Value: 0x025F
Register 0x04 Value: 0x0259
Register 0x04 Value: 0x025A
Register 0x04 Value: 0x0271
Register 0x04 Value: 0x025F
Register 0x04 Value: 0x0220
Register 0x04 Value: 0x025D
Register 0x04 Value: 0x0263
Register 0x04 Value: 0x0250
Register 0x04 Value: 0x023B
Register 0x04 Value: 0x0262
Register 0x04 Value: 0x024F
Register 0x04 Value: 0x0273
Register 0x04 Value: 0x0235
Register 0x04 Value: 0x0254
Register 0x04 Value: 0x026E
Register 0x04 Value: 0x025B
Register 0x04 Value: 0x0255
Register 0x04 Value: 0x026D
Register 0x04 Value: 0x0248
Register 0x04 Value: 0x024D
Register 0x04 Value: 0x0223
Register 0x04 Value: 0x0264
Register 0x04 Value: 0x0249
Register 0x04 Value: 0x025E
Register 0x04 Value: 0x0225
Register 0x04 Value: 0x022E
Register 0x04 Value: 0x0269
Register 0x04 Value: 0x026C
Register 0x04 Value: 0x0253
Register 0x04 Value: 0x025A
Register 0x04 Value: 0x0242
Register 0x04 Value: 0x026C
Register 0x04 Value: 0x021F
Register 0x04 Value: 0x025F
Register 0x04 Value: 0x0250
Register 0x04 Value: 0x026D
Register 0x04 Value: 0x021A
Register 0x04 Value: 0x0264
Register 0x04 Value: 0x025D
Register 0x04 Value: 0x024D
Register 0x04 Value: 0x0225
Register 0x04 Value: 0x0238
Register 0x04 Value: 0x024D
Register 0x04 Value: 0x0271
Register 0x04 Value: 0x0263
Register 0x04 Value: 0x0261
Register 0x04 Value: 0x026C
Register 0x04 Value: 0x0255
Register 0x04 Value: 0x0260
Register 0x04 Value: 0x025F
Register 0x04 Value: 0x026D
Register 0x04 Value: 0x0248
Register 0x04 Value: 0x024A
Register 0x04 Value: 0x0235
Register 0x04 Value: 0x0261
Register 0x04 Value: 0x026C
Register 0x04 Value: 0x0277
Register 0x04 Value: 0x025D
Register 0x04 Value: 0x026B
Register 0x04 Value: 0x0268
Register 0x04 Value: 0x0274
Register 0x04 Value: 0x022A
Register 0x04 Value: 0x026D
Register 0x04 Value: 0x0241
Register 0x04 Value: 0x026E
Register 0x04 Value: 0x0249
Register 0x04 Value: 0x022C
Register 0x04 Value: 0x026B
Register 0x04 Value: 0x0251
Register 0x04 Value: 0x025A
Register 0x04 Value: 0x026E
Register 0x04 Value: 0x026D
Register 0x04 Value: 0x0249
Register 0x04 Value: 0x0257
Register 0x04 Value: 0x026C
Register 0x04 Value: 0x0275
Register 0x04 Value: 0x026A
Register 0x04 Value: 0x0227
Register 0x04 Value: 0x0265
Register 0x04 Value: 0x0238
Register 0x04 Value: 0x026D
Register 0x04 Value: 0x023B
Register 0x04 Value: 0x026B
Register 0x04 Value: 0x023C
Register 0x04 Value: 0x026E
Register 0x04 Value: 0x0217
Register 0x04 Value: 0x0243
Register 0x04 Value: 0x0243
Register 0x04 Value: 0x025B
Register 0x04 Value: 0x0250
Register 0x04 Value: 0x0253
Register 0x04 Value: 0x0248
Register 0x04 Value: 0x0261
Register 0x04 Value: 0x0253
Register 0x04 Value: 0x025C
Register 0x04 Value: 0x026C
Register 0x04 Value: 0x0249
Register 0x04 Value: 0x024E
Register 0x04 Value: 0x0252
Register 0x04 Value: 0x0244
Register 0x04 Value: 0x0266
Register 0x04 Value: 0x0256
Register 0x04 Value: 0x0233
Register 0x04 Value: 0x023B
Register 0x04 Value: 0x025D
Register 0x04 Value: 0x023D
Register 0x04 Value: 0x022B
Register 0x04 Value: 0x0238
Register 0x04 Value: 0x024F
Register 0x04 Value: 0x025A
Register 0x04 Value: 0x0253
Register 0x04 Value: 0x0267
Register 0x04 Value: 0x0251
Register 0x04 Value: 0x0233
Register 0x04 Value: 0x0231
Register 0x04 Value: 0x026C
Register 0x04 Value: 0x0266
Register 0x04 Value: 0x0247
Register 0x04 Value: 0x025B
Register 0x04 Value: 0x0269
Register 0x04 Value: 0x0256
Register 0x04 Value: 0x0264
Register 0x04 Value: 0x0258
Register 0x04 Value: 0x0269
Register 0x04 Value: 0x0259
Register 0x04 Value: 0x0239
Register 0x04 Value: 0x0222
Register 0x04 Value: 0x0261
Register 0x04 Value: 0x0269
Register 0x04 Value: 0x0261
Register 0x04 Value: 0x0228
Register 0x04 Value: 0x0232
Register 0x04 Value: 0x024F
Register 0x04 Value: 0x026F
Register 0x04 Value: 0x021E
Register 0x04 Value: 0x0274
Register 0x04 Value: 0x0257
Register 0x04 Value: 0x0256
Register 0x04 Value: 0x0244
Register 0x04 Value: 0x026C
Register 0x04 Value: 0x023D
Register 0x04 Value: 0x024F
Register 0x04 Value: 0x025A
Register 0x04 Value: 0x0251
Register 0x04 Value: 0x0262
Register 0x04 Value: 0x0246
Register 0x04 Value: 0x0256
Register 0x04 Value: 0x022D
Register 0x04 Value: 0x0263
Register 0x04 Value: 0x0272
Register 0x04 Value: 0x021C
Register 0x04 Value: 0x0268




[ *				W	a	r	p	(rev. b)			* ]

[  				      Cambridge / Physcomplab   				  ]


	Supply=0mV,	Default Target Read Register=0x00

	I2C=200kb/s,	SPI=200kb/s,	UART=1kb/s,	I2C Pull-Up=32768


	SIM->SCGC6=0x20000001		RTC->SR=0x10		RTC->TSR=0x56871326

	MCG_C1=0x42			MCG_C2=0x00		MCG_S=0x06

	MCG_SC=0x00			MCG_MC=0x00		OSC_CR=0x00

	SMC_PMPROT=0x22			SMC_PMCTRL=0x40		SCB->SCR=0x00

	PMC_REGSC=0x00			SIM_SCGC4=0xF0400030	RTC->TPR=0x4426


	0s in RTC Handler to-date,	0 Pmgr Errors

Select:

- 'a': set default sensor.

- 'b': set I2C baud rate.

- 'c': set SPI baud rate.

- 'd': set UART baud rate.

- 'e': set default register address.

- 'f': write byte to sensor.

- 'g': set default SSSUPPLY.

- 'h': powerdown command to all sensors.

- 'i': set pull-up enable value.

- 'j': repeat read reg 0x00 on sensor #3.

- 'k': sleep until reset.

- 'l': send repeated byte on I2C.

- 'm': send repeated byte on SPI.

- 'n': enable SSSUPPLY.

- 'o': disable SSSUPPLY.

- 'p': switch to VLPR mode.

- 'r': switch to RUN mode.

- 's': power up all sensors.

- 't': dump processor state.

- 'u': set I2C address.

- 'x': disable SWD and spin for 10 secs.

- 'z': dump all sensors data.

Enter selection> 



Booting Warp, in 3... 2... 1...

Successfully configured INA219
Register 0x00 Value: 0x019F
Enter INA219 calibration setting in hex (e.g. 5E1E): 1000
Entered 0x1000
Successfully calibrated INA219
Register 0x05 Value: 0x1000
Register 0x04 Value: 0x0243
Enter number of current measurements required (e.g. 1000): 1000
1000 readings required
Register 0x04 Value: 0x0230
Register 0x04 Value: 0x0272
Register 0x04 Value: 0x024D
Register 0x04 Value: 0x0239
Register 0x04 Value: 0x0241
Register 0x04 Value: 0x0265
Register 0x04 Value: 0x023B
Register 0x04 Value: 0x024C
Register 0x04 Value: 0x0269
Register 0x04 Value: 0x024B
Register 0x04 Value: 0x0277
Register 0x04 Value: 0x0213
Register 0x04 Value: 0x0269
Register 0x04 Value: 0x0260
Register 0x04 Value: 0x0267
Register 0x04 Value: 0x0217
Register 0x04 Value: 0x0228
Register 0x04 Value: 0x026B
Register 0x04 Value: 0x0252
Register 0x04 Value: 0x0249
Register 0x04 Value: 0x0259
Register 0x04 Value: 0x0255
Register 0x04 Value: 0x0242
Register 0x04 Value: 0x0257
Register 0x04 Value: 0x0264
Register 0x04 Value: 0x0263
Register 0x04 Value: 0x024F
Register 0x04 Value: 0x0244
Register 0x04 Value: 0x0258
Register 0x04 Value: 0x0265
Register 0x04 Value: 0x026D
Register 0x04 Value: 0x0247
Register 0x04 Value: 0x026A
Register 0x04 Value: 0x0266
Register 0x04 Value: 0x024C
Register 0x04 Value: 0x026B
Register 0x04 Value: 0x0262
Register 0x04 Value: 0x025D
Register 0x04 Value: 0x023B
Register 0x04 Value: 0x026E
Register 0x04 Value: 0x026D
Register 0x04 Value: 0x0260
Register 0x04 Value: 0x0270
Register 0x04 Value: 0x024E
Register 0x04 Value: 0x022F
Register 0x04 Value: 0x026A
Register 0x04 Value: 0x026D
Register 0x04 Value: 0x0261
Register 0x04 Value: 0x025C
Register 0x04 Value: 0x0263
Register 0x04 Value: 0x0243
Register 0x04 Value: 0x0273
Register 0x04 Value: 0x0246
Register 0x04 Value: 0x0266
Register 0x04 Value: 0x0262
Register 0x04 Value: 0x0235
Register 0x04 Value: 0x0255
Register 0x04 Value: 0x026A
Register 0x04 Value: 0x0247
Register 0x04 Value: 0x0256
Register 0x04 Value: 0x0222
Register 0x04 Value: 0x0261
Register 0x04 Value: 0x0266
Register 0x04 Value: 0x024E
Register 0x04 Value: 0x022C
Register 0x04 Value: 0x0247
Register 0x04 Value: 0x0267
Register 0x04 Value: 0x0275
Register 0x04 Value: 0x0255
Register 0x04 Value: 0x0263
Register 0x04 Value: 0x0250
Register 0x04 Value: 0x025F
Register 0x04 Value: 0x024F
Register 0x04 Value: 0x0263
Register 0x04 Value: 0x0269
Register 0x04 Value: 0x0242
Register 0x04 Value: 0x021C
Register 0x04 Value: 0x0232
Register 0x04 Value: 0x0262
Register 0x04 Value: 0x026E
Register 0x04 Value: 0x021C
Register 0x04 Value: 0x022C
Register 0x04 Value: 0x026C
Register 0x04 Value: 0x026F
Register 0x04 Value: 0x0222
Register 0x04 Value: 0x0260
Register 0x04 Value: 0x025F
Register 0x04 Value: 0x0247
Register 0x04 Value: 0x0254
Register 0x04 Value: 0x0266
Register 0x04 Value: 0x0255
Register 0x04 Value: 0x0253
Register 0x04 Value: 0x0231
Register 0x04 Value: 0x0262
Register 0x04 Value: 0x026C
Register 0x04 Value: 0x0249
Register 0x04 Value: 0x0257
Register 0x04 Value: 0x0249
Register 0x04 Value: 0x026A
Register 0x04 Value: 0x026B
Register 0x04 Value: 0x024E
Register 0x04 Value: 0x025C
Register 0x04 Value: 0x0249
Register 0x04 Value: 0x0264
Register 0x04 Value: 0x0269
Register 0x04 Value: 0x0226
Register 0x04 Value: 0x0254
Register 0x04 Value: 0x026E
Register 0x04 Value: 0x024A
Register 0x04 Value: 0x0259
Register 0x04 Value: 0x0267
Register 0x04 Value: 0x0249
Register 0x04 Value: 0x025A
Register 0x04 Value: 0x0221
Register 0x04 Value: 0x026E
Register 0x04 Value: 0x0243
Register 0x04 Value: 0x0260
Register 0x04 Value: 0x025E
Register 0x04 Value: 0x026A
Register 0x04 Value: 0x026E
Register 0x04 Value: 0x0256
Register 0x04 Value: 0x0241
Register 0x04 Value: 0x0236
Register 0x04 Value: 0x0241
Register 0x04 Value: 0x024C
Register 0x04 Value: 0x0220
Register 0x04 Value: 0x026D
Register 0x04 Value: 0x0245
Register 0x04 Value: 0x026E
Register 0x04 Value: 0x021E
Register 0x04 Value: 0x0254
Register 0x04 Value: 0x025D
Register 0x04 Value: 0x024C
Register 0x04 Value: 0x0246
Register 0x04 Value: 0x0266
Register 0x04 Value: 0x024D
Register 0x04 Value: 0x0254
Register 0x04 Value: 0x0259
Register 0x04 Value: 0x0237
Register 0x04 Value: 0x0265
Register 0x04 Value: 0x0260
Register 0x04 Value: 0x0254
Register 0x04 Value: 0x0267
Register 0x04 Value: 0x026F
Register 0x04 Value: 0x026E
Register 0x04 Value: 0x0226
Register 0x04 Value: 0x023A
Register 0x04 Value: 0x0255
Register 0x04 Value: 0x026E
Register 0x04 Value: 0x0218
Register 0x04 Value: 0x023E
Register 0x04 Value: 0x0244
Register 0x04 Value: 0x0268
Register 0x04 Value: 0x024D
Register 0x04 Value: 0x0263
Register 0x04 Value: 0x026E
Register 0x04 Value: 0x0264
Register 0x04 Value: 0x0248
Register 0x04 Value: 0x0256
Register 0x04 Value: 0x0269
Register 0x04 Value: 0x0268
Register 0x04 Value: 0x0265
Register 0x04 Value: 0x024A
Register 0x04 Value: 0x0270
Register 0x04 Value: 0x0261
Register 0x04 Value: 0x0257
Register 0x04 Value: 0x0237
Register 0x04 Value: 0x023F
Register 0x04 Value: 0x0274
Register 0x04 Value: 0x025C
Register 0x04 Value: 0x0230
Register 0x04 Value: 0x026C
Register 0x04 Value: 0x026C
Register 0x04 Value: 0x0242
Register 0x04 Value: 0x0224
Register 0x04 Value: 0x026C
Register 0x04 Value: 0x026B
Register 0x04 Value: 0x0245
Register 0x04 Value: 0x0228
Register 0x04 Value: 0x024E
Register 0x04 Value: 0x0271
Register 0x04 Value: 0x0215
Register 0x04 Value: 0x0260
Register 0x04 Value: 0x0266
Register 0x04 Value: 0x025E
Register 0x04 Value: 0x0267
Register 0x04 Value: 0x0259
Register 0x04 Value: 0x0261
Register 0x04 Value: 0x0242
Register 0x04 Value: 0x0255
Register 0x04 Value: 0x025E
Register 0x04 Value: 0x0268
Register 0x04 Value: 0x026C
Register 0x04 Value: 0x0271
Register 0x04 Value: 0x0255
Register 0x04 Value: 0x026A
Register 0x04 Value: 0x024E
Register 0x04 Value: 0x0240
Register 0x04 Value: 0x0259
Register 0x04 Value: 0x0265
Register 0x04 Value: 0x0247
Register 0x04 Value: 0x0268
Register 0x04 Value: 0x0259
Register 0x04 Value: 0x025E
Register 0x04 Value: 0x0270
Register 0x04 Value: 0x0266
Register 0x04 Value: 0x0229
Register 0x04 Value: 0x0261
Register 0x04 Value: 0x0265
Register 0x04 Value: 0x0249
Register 0x04 Value: 0x0222
Register 0x04 Value: 0x025B
Register 0x04 Value: 0x0240
Register 0x04 Value: 0x023C
Register 0x04 Value: 0x021D
Register 0x04 Value: 0x0265
Register 0x04 Value: 0x0259
Register 0x04 Value: 0x026B
Register 0x04 Value: 0x021F
Register 0x04 Value: 0x0234
Register 0x04 Value: 0x023F
Register 0x04 Value: 0x026D
Register 0x04 Value: 0x022A
Register 0x04 Value: 0x0245
Register 0x04 Value: 0x026E
Register 0x04 Value: 0x0271
Register 0x04 Value: 0x0251
Register 0x04 Value: 0x0239
Register 0x04 Value: 0x0269
Register 0x04 Value: 0x025A
Register 0x04 Value: 0x0215
Register 0x04 Value: 0x024F
Register 0x04 Value: 0x025E
Register 0x04 Value: 0x0258
Register 0x04 Value: 0x0249
Register 0x04 Value: 0x0224
Register 0x04 Value: 0x023E
Register 0x04 Value: 0x024B
Register 0x04 Value: 0x0251
Register 0x04 Value: 0x025C
Register 0x04 Value: 0x0256
Register 0x04 Value: 0x0266
Register 0x04 Value: 0x023B
Register 0x04 Value: 0x0239
Register 0x04 Value: 0x026C
Register 0x04 Value: 0x026D
Register 0x04 Value: 0x0250
Register 0x04 Value: 0x023A
Register 0x04 Value: 0x0264
Register 0x04 Value: 0x0251
Register 0x04 Value: 0x027A
Register 0x04 Value: 0x0231
Register 0x04 Value: 0x0269
Register 0x04 Value: 0x026B
Register 0x04 Value: 0x026D
Register 0x04 Value: 0x0223
Register 0x04 Value: 0x0269
Register 0x04 Value: 0x026D
Register 0x04 Value: 0x026E
Register 0x04 Value: 0x0221
Register 0x04 Value: 0x0235
Register 0x04 Value: 0x0244
Register 0x04 Value: 0x0263
Register 0x04 Value: 0x0227
Register 0x04 Value: 0x0243
Register 0x04 Value: 0x0263
Register 0x04 Value: 0x0259
Register 0x04 Value: 0x0260
Register 0x04 Value: 0x0241
Register 0x04 Value: 0x0247
Register 0x04 Value: 0x026B
Register 0x04 Value: 0x0230
Register 0x04 Value: 0x026A
Register 0x04 Value: 0x023D
Register 0x04 Value: 0x0246
Register 0x04 Value: 0x025E
Register 0x04 Value: 0x0262
Register 0x04 Value: 0x0269
Register 0x04 Value: 0x026B
Register 0x04 Value: 0x0227
Register 0x04 Value: 0x0234
Register 0x04 Value: 0x026E
Register 0x04 Value: 0x0276
Register 0x04 Value: 0x0254
Register 0x04 Value: 0x0265
Register 0x04 Value: 0x0236
Register 0x04 Value: 0x025E
Register 0x04 Value: 0x0241
Register 0x04 Value: 0x0232
Register 0x04 Value: 0x026A
Register 0x04 Value: 0x025F
Register 0x04 Value: 0x0252
Register 0x04 Value: 0x025C
Register 0x04 Value: 0x026D
Register 0x04 Value: 0x0267
Register 0x04 Value: 0x021A
Register 0x04 Value: 0x023A
Register 0x04 Value: 0x0246
Register 0x04 Value: 0x0273
Register 0x04 Value: 0x0254
Register 0x04 Value: 0x0264
Register 0x04 Value: 0x0268
Register 0x04 Value: 0x0246
Register 0x04 Value: 0x025A
Register 0x04 Value: 0x0260
Register 0x04 Value: 0x0272
Register 0x04 Value: 0x026A
Register 0x04 Value: 0x026F
Register 0x04 Value: 0x024D
Register 0x04 Value: 0x0240
Register 0x04 Value: 0x026A
Register 0x04 Value: 0x0266
Register 0x04 Value: 0x0267
Register 0x04 Value: 0x024F
Register 0x04 Value: 0x0266
Register 0x04 Value: 0x0231
Register 0x04 Value: 0x022B
Register 0x04 Value: 0x0265
Register 0x04 Value: 0x026E
Register 0x04 Value: 0x0258
Register 0x04 Value: 0x021D
Register 0x04 Value: 0x0237
Register 0x04 Value: 0x026F
Register 0x04 Value: 0x025C
Register 0x04 Value: 0x022B
Register 0x04 Value: 0x0259
Register 0x04 Value: 0x0263
Register 0x04 Value: 0x0250
Register 0x04 Value: 0x0237
Register 0x04 Value: 0x0255
Register 0x04 Value: 0x026E
Register 0x04 Value: 0x0275
Register 0x04 Value: 0x023E
Register 0x04 Value: 0x0266
Register 0x04 Value: 0x0266
Register 0x04 Value: 0x023E
Register 0x04 Value: 0x024F
Register 0x04 Value: 0x0243
Register 0x04 Value: 0x0253
Register 0x04 Value: 0x025D
Register 0x04 Value: 0x024E
Register 0x04 Value: 0x026D
Register 0x04 Value: 0x0239
Register 0x04 Value: 0x025E
Register 0x04 Value: 0x0252
Register 0x04 Value: 0x0267
Register 0x04 Value: 0x0264
Register 0x04 Value: 0x0264
Register 0x04 Value: 0x0242
Register 0x04 Value: 0x0252
Register 0x04 Value: 0x023D
Register 0x04 Value: 0x026F
Register 0x04 Value: 0x021E
Register 0x04 Value: 0x0267
Register 0x04 Value: 0x0265
Register 0x04 Value: 0x0272
Register 0x04 Value: 0x0233
Register 0x04 Value: 0x0253
Register 0x04 Value: 0x025D
Register 0x04 Value: 0x0254
Register 0x04 Value: 0x021B
Register 0x04 Value: 0x025E
Register 0x04 Value: 0x0236
Register 0x04 Value: 0x024A
Register 0x04 Value: 0x022D
Register 0x04 Value: 0x0262
Register 0x04 Value: 0x026D
Register 0x04 Value: 0x0274
Register 0x04 Value: 0x025E
Register 0x04 Value: 0x0232
Register 0x04 Value: 0x025F
Register 0x04 Value: 0x026C
Register 0x04 Value: 0x023B
Register 0x04 Value: 0x0263
Register 0x04 Value: 0x0239
Register 0x04 Value: 0x0273
Register 0x04 Value: 0x0232
Register 0x04 Value: 0x022D
Register 0x04 Value: 0x0251
Register 0x04 Value: 0x025C
Register 0x04 Value: 0x0231
Register 0x04 Value: 0x0226
Register 0x04 Value: 0x0264
Register 0x04 Value: 0x0275
Register 0x04 Value: 0x0210
Register 0x04 Value: 0x0227
Register 0x04 Value: 0x0236
Register 0x04 Value: 0x0251
Register 0x04 Value: 0x0214
Register 0x04 Value: 0x025C
Register 0x04 Value: 0x025E
Register 0x04 Value: 0x0265
Register 0x04 Value: 0x0246
Register 0x04 Value: 0x0230
Register 0x04 Value: 0x0235
Register 0x04 Value: 0x0252
Register 0x04 Value: 0x026D
Register 0x04 Value: 0x0265
Register 0x04 Value: 0x026C
Register 0x04 Value: 0x026C
Register 0x04 Value: 0x0243
Register 0x04 Value: 0x0261
Register 0x04 Value: 0x0265
Register 0x04 Value: 0x0245
Register 0x04 Value: 0x0273
Register 0x04 Value: 0x023E
Register 0x04 Value: 0x0263
Register 0x04 Value: 0x0241
Register 0x04 Value: 0x0244
Register 0x04 Value: 0x024E
Register 0x04 Value: 0x0264
Register 0x04 Value: 0x0269
Register 0x04 Value: 0x0248
Register 0x04 Value: 0x0260
Register 0x04 Value: 0x0241
Register 0x04 Value: 0x0264
Register 0x04 Value: 0x0256
Register 0x04 Value: 0x024F
Register 0x04 Value: 0x0237
Register 0x04 Value: 0x026F
Register 0x04 Value: 0x026C
Register 0x04 Value: 0x023E
Register 0x04 Value: 0x0261
Register 0x04 Value: 0x0243
Register 0x04 Value: 0x0271
Register 0x04 Value: 0x0221
Register 0x04 Value: 0x0264
Register 0x04 Value: 0x024D
Register 0x04 Value: 0x0273
Register 0x04 Value: 0x022A
Register 0x04 Value: 0x0267
Register 0x04 Value: 0x023B
Register 0x04 Value: 0x026F
Register 0x04 Value: 0x024C
Register 0x04 Value: 0x0262
Register 0x04 Value: 0x026D
Register 0x04 Value: 0x0268
Register 0x04 Value: 0x0251
Register 0x04 Value: 0x024B
Register 0x04 Value: 0x026F
Register 0x04 Value: 0x0255
Register 0x04 Value: 0x0256
Register 0x04 Value: 0x022E
Register 0x04 Value: 0x024C
Register 0x04 Value: 0x0271
Register 0x04 Value: 0x0218
Register 0x04 Value: 0x0246
Register 0x04 Value: 0x0269
Register 0x04 Value: 0x0272
Register 0x04 Value: 0x0255
Register 0x04 Value: 0x0236
Register 0x04 Value: 0x026D
Register 0x04 Value: 0x025E
Register 0x04 Value: 0x0225
Register 0x04 Value: 0x0244
Register 0x04 Value: 0x0260
Register 0x04 Value: 0x0244
Register 0x04 Value: 0x0266
Register 0x04 Value: 0x025A
Register 0x04 Value: 0x026B
Register 0x04 Value: 0x026B
Register 0x04 Value: 0x0252
Register 0x04 Value: 0x0240
Register 0x04 Value: 0x0261
Register 0x04 Value: 0x0273
Register 0x04 Value: 0x025C
Register 0x04 Value: 0x0229
Register 0x04 Value: 0x0266
Register 0x04 Value: 0x025C
Register 0x04 Value: 0x025D
Register 0x04 Value: 0x0252
Register 0x04 Value: 0x0244
Register 0x04 Value: 0x0244
Register 0x04 Value: 0x0219
Register 0x04 Value: 0x0239
Register 0x04 Value: 0x0261
Register 0x04 Value: 0x0243
Register 0x04 Value: 0x022D
Register 0x04 Value: 0x0248
Register 0x04 Value: 0x0267
Register 0x04 Value: 0x026B
Register 0x04 Value: 0x0250
Register 0x04 Value: 0x0228
Register 0x04 Value: 0x0267
Register 0x04 Value: 0x0255
Register 0x04 Value: 0x026C
Register 0x04 Value: 0x0255
Register 0x04 Value: 0x0262
Register 0x04 Value: 0x025E
Register 0x04 Value: 0x0275
Register 0x04 Value: 0x0246
Register 0x04 Value: 0x023A
Register 0x04 Value: 0x023F
Register 0x04 Value: 0x0276
Register 0x04 Value: 0x022D
Register 0x04 Value: 0x023B
Register 0x04 Value: 0x023B
Register 0x04 Value: 0x026B
Register 0x04 Value: 0x0250
Register 0x04 Value: 0x0267
Register 0x04 Value: 0x026B
Register 0x04 Value: 0x0243
Register 0x04 Value: 0x021C
Register 0x04 Value: 0x0264
Register 0x04 Value: 0x026F
Register 0x04 Value: 0x025A
Register 0x04 Value: 0x0219
Register 0x04 Value: 0x0249
Register 0x04 Value: 0x0269
Register 0x04 Value: 0x0268
Register 0x04 Value: 0x0256
Register 0x04 Value: 0x0266
Register 0x04 Value: 0x0266
Register 0x04 Value: 0x0258
Register 0x04 Value: 0x023A
Register 0x04 Value: 0x022E
Register 0x04 Value: 0x0272
Register 0x04 Value: 0x025B
Register 0x04 Value: 0x0221
Register 0x04 Value: 0x0232
Register 0x04 Value: 0x0267
Register 0x04 Value: 0x023A
Register 0x04 Value: 0x0233
Register 0x04 Value: 0x0247
Register 0x04 Value: 0x026A
Register 0x04 Value: 0x0270
Register 0x04 Value: 0x024F
Register 0x04 Value: 0x026A
Register 0x04 Value: 0x023A
Register 0x04 Value: 0x024A
Register 0x04 Value: 0x0250
Register 0x04 Value: 0x022D
Register 0x04 Value: 0x0270
Register 0x04 Value: 0x025C
Register 0x04 Value: 0x0222
Register 0x04 Value: 0x025B
Register 0x04 Value: 0x025C
Register 0x04 Value: 0x0261
Register 0x04 Value: 0x0216
Register 0x04 Value: 0x0252
Register 0x04 Value: 0x023B
Register 0x04 Value: 0x026F
Register 0x04 Value: 0x0253
Register 0x04 Value: 0x024D
Register 0x04 Value: 0x026A
Register 0x04 Value: 0x0242
Register 0x04 Value: 0x0246
Register 0x04 Value: 0x0226
Register 0x04 Value: 0x025D
Register 0x04 Value: 0x0267
Register 0x04 Value: 0x0268
Register 0x04 Value: 0x0238
Register 0x04 Value: 0x026F
Register 0x04 Value: 0x024F
Register 0x04 Value: 0x0260
Register 0x04 Value: 0x0240
Register 0x04 Value: 0x0249
Register 0x04 Value: 0x023C
Register 0x04 Value: 0x024A
Register 0x04 Value: 0x0258
Register 0x04 Value: 0x025B
Register 0x04 Value: 0x0269
Register 0x04 Value: 0x0248
Register 0x04 Value: 0x0244
Register 0x04 Value: 0x0240
Register 0x04 Value: 0x026E
Register 0x04 Value: 0x0273
Register 0x04 Value: 0x0256
Register 0x04 Value: 0x0269
Register 0x04 Value: 0x0260
Register 0x04 Value: 0x024C
Register 0x04 Value: 0x0229
Register 0x04 Value: 0x022D
Register 0x04 Value: 0x023D
Register 0x04 Value: 0x0273
Register 0x04 Value: 0x025D
Register 0x04 Value: 0x022B
Register 0x04 Value: 0x026C
Register 0x04 Value: 0x025C
Register 0x04 Value: 0x0245
Register 0x04 Value: 0x0239
Register 0x04 Value: 0x0275
Register 0x04 Value: 0x026E
Register 0x04 Value: 0x0235
Register 0x04 Value: 0x025C
Register 0x04 Value: 0x026A
Register 0x04 Value: 0x024D
Register 0x04 Value: 0x024F
Register 0x04 Value: 0x023A
Register 0x04 Value: 0x024D
Register 0x04 Value: 0x025C
Register 0x04 Value: 0x0243
Register 0x04 Value: 0x0232
Register 0x04 Value: 0x026C
Register 0x04 Value: 0x0274
Register 0x04 Value: 0x021B
Register 0x04 Value: 0x0261
Register 0x04 Value: 0x0246
Register 0x04 Value: 0x0265
Register 0x04 Value: 0x023C
Register 0x04 Value: 0x025A
Register 0x04 Value: 0x0245
Register 0x04 Value: 0x026A
Register 0x04 Value: 0x023D
Register 0x04 Value: 0x025B
Register 0x04 Value: 0x0269
Register 0x04 Value: 0x026D
Register 0x04 Value: 0x0257
Register 0x04 Value: 0x0228
Register 0x04 Value: 0x0267
Register 0x04 Value: 0x0240
Register 0x04 Value: 0x0261
Register 0x04 Value: 0x0253
Register 0x04 Value: 0x0241
Register 0x04 Value: 0x0240
Register 0x04 Value: 0x0264
Register 0x04 Value: 0x0254
Register 0x04 Value: 0x0254
Register 0x04 Value: 0x025C
Register 0x04 Value: 0x0241
Register 0x04 Value: 0x0258
Register 0x04 Value: 0x0269
Register 0x04 Value: 0x026A
Register 0x04 Value: 0x0258
Register 0x04 Value: 0x024D
Register 0x04 Value: 0x026B
Register 0x04 Value: 0x023C
Register 0x04 Value: 0x023F
Register 0x04 Value: 0x023D
Register 0x04 Value: 0x026A
Register 0x04 Value: 0x0261
Register 0x04 Value: 0x0258
Register 0x04 Value: 0x0257
Register 0x04 Value: 0x0269
Register 0x04 Value: 0x0270
Register 0x04 Value: 0x024A
Register 0x04 Value: 0x0251
Register 0x04 Value: 0x0253
Register 0x04 Value: 0x0267
Register 0x04 Value: 0x0271
Register 0x04 Value: 0x0259
Register 0x04 Value: 0x0259
Register 0x04 Value: 0x0257
Register 0x04 Value: 0x0275
Register 0x04 Value: 0x025D
Register 0x04 Value: 0x0240
Register 0x04 Value: 0x026C
Register 0x04 Value: 0x0268
Register 0x04 Value: 0x0215
Register 0x04 Value: 0x023D
Register 0x04 Value: 0x0248
Register 0x04 Value: 0x025E
Register 0x04 Value: 0x0219
Register 0x04 Value: 0x026A
Register 0x04 Value: 0x025D
Register 0x04 Value: 0x0271
Register 0x04 Value: 0x0251
Register 0x04 Value: 0x0267
Register 0x04 Value: 0x0252
Register 0x04 Value: 0x0252
Register 0x04 Value: 0x021F
Register 0x04 Value: 0x024B
Register 0x04 Value: 0x0271
Register 0x04 Value: 0x0269
Register 0x04 Value: 0x0256
Register 0x04 Value: 0x0253
Register 0x04 Value: 0x0245
Register 0x04 Value: 0x026E
Register 0x04 Value: 0x025C
Register 0x04 Value: 0x0260
Register 0x04 Value: 0x0250
Register 0x04 Value: 0x026C
Register 0x04 Value: 0x021F
Register 0x04 Value: 0x0228
Register 0x04 Value: 0x0269
Register 0x04 Value: 0x026B
Register 0x04 Value: 0x0254
Register 0x04 Value: 0x023D
Register 0x04 Value: 0x026E
Register 0x04 Value: 0x0254
Register 0x04 Value: 0x0241
Register 0x04 Value: 0x023A
Register 0x04 Value: 0x0238
Register 0x04 Value: 0x0269
Register 0x04 Value: 0x024B
Register 0x04 Value: 0x025F
Register 0x04 Value: 0x026A
Register 0x04 Value: 0x0262
Register 0x04 Value: 0x0253
Register 0x04 Value: 0x0262
Register 0x04 Value: 0x0267
Register 0x04 Value: 0x0263
Register 0x04 Value: 0x0247
Register 0x04 Value: 0x0231
Register 0x04 Value: 0x0268
Register 0x04 Value: 0x0261
Register 0x04 Value: 0x0253
Register 0x04 Value: 0x023D
Register 0x04 Value: 0x024E
Register 0x04 Value: 0x0239
Register 0x04 Value: 0x0268
Register 0x04 Value: 0x0263
Register 0x04 Value: 0x026E
Register 0x04 Value: 0x0271
Register 0x04 Value: 0x0267
Register 0x04 Value: 0x0233
Register 0x04 Value: 0x026E
Register 0x04 Value: 0x026A
Register 0x04 Value: 0x0275
Register 0x04 Value: 0x0220
Register 0x04 Value: 0x0240
Register 0x04 Value: 0x026E
Register 0x04 Value: 0x025B
Register 0x04 Value: 0x0255
Register 0x04 Value: 0x026D
Register 0x04 Value: 0x0242
Register 0x04 Value: 0x026C
Register 0x04 Value: 0x0239
Register 0x04 Value: 0x023A
Register 0x04 Value: 0x0270
Register 0x04 Value: 0x026B
Register 0x04 Value: 0x0243
Register 0x04 Value: 0x0253
Register 0x04 Value: 0x0247
Register 0x04 Value: 0x025D
Register 0x04 Value: 0x0252
Register 0x04 Value: 0x0260
Register 0x04 Value: 0x0271
Register 0x04 Value: 0x023F
Register 0x04 Value: 0x0259
Register 0x04 Value: 0x0235
Register 0x04 Value: 0x024F
Register 0x04 Value: 0x0270
Register 0x04 Value: 0x0257
Register 0x04 Value: 0x0233
Register 0x04 Value: 0x0252
Register 0x04 Value: 0x0240
Register 0x04 Value: 0x0253
Register 0x04 Value: 0x0230
Register 0x04 Value: 0x026F
Register 0x04 Value: 0x026A
Register 0x04 Value: 0x0240
Register 0x04 Value: 0x023B
Register 0x04 Value: 0x0268
Register 0x04 Value: 0x026D
Register 0x04 Value: 0x024B
Register 0x04 Value: 0x0261
Register 0x04 Value: 0x0270
Register 0x04 Value: 0x026B
Register 0x04 Value: 0x0249
Register 0x04 Value: 0x023B
Register 0x04 Value: 0x026A
Register 0x04 Value: 0x0258
Register 0x04 Value: 0x0251
Register 0x04 Value: 0x0266
Register 0x04 Value: 0x026E
Register 0x04 Value: 0x0247
Register 0x04 Value: 0x0247
Register 0x04 Value: 0x0228
Register 0x04 Value: 0x025E
Register 0x04 Value: 0x0253
Register 0x04 Value: 0x0268
Register 0x04 Value: 0x025D
Register 0x04 Value: 0x0264
Register 0x04 Value: 0x024A
Register 0x04 Value: 0x0256
Register 0x04 Value: 0x0238
Register 0x04 Value: 0x0253
Register 0x04 Value: 0x0270
Register 0x04 Value: 0x0265
Register 0x04 Value: 0x0248
Register 0x04 Value: 0x0265
Register 0x04 Value: 0x0252
Register 0x04 Value: 0x0247
Register 0x04 Value: 0x025C
Register 0x04 Value: 0x0269
Register 0x04 Value: 0x0241
Register 0x04 Value: 0x024F
Register 0x04 Value: 0x0231
Register 0x04 Value: 0x023E
Register 0x04 Value: 0x026A
Register 0x04 Value: 0x0254
Register 0x04 Value: 0x023C
Register 0x04 Value: 0x022F
Register 0x04 Value: 0x026E
Register 0x04 Value: 0x0270
Register 0x04 Value: 0x0249
Register 0x04 Value: 0x0265
Register 0x04 Value: 0x0270
Register 0x04 Value: 0x026E
Register 0x04 Value: 0x0260
Register 0x04 Value: 0x0252
Register 0x04 Value: 0x0249
Register 0x04 Value: 0x0257
Register 0x04 Value: 0x023F
Register 0x04 Value: 0x025D
Register 0x04 Value: 0x0267
Register 0x04 Value: 0x0253
Register 0x04 Value: 0x0250
Register 0x04 Value: 0x0265
Register 0x04 Value: 0x0235
Register 0x04 Value: 0x026F
Register 0x04 Value: 0x023A
Register 0x04 Value: 0x0261
Register 0x04 Value: 0x026F
Register 0x04 Value: 0x0269
Register 0x04 Value: 0x021B
Register 0x04 Value: 0x0265
Register 0x04 Value: 0x0272
Register 0x04 Value: 0x0271
Register 0x04 Value: 0x024A
Register 0x04 Value: 0x0231
Register 0x04 Value: 0x0266
Register 0x04 Value: 0x0263
Register 0x04 Value: 0x0235
Register 0x04 Value: 0x0241
Register 0x04 Value: 0x026D
Register 0x04 Value: 0x026E
Register 0x04 Value: 0x0255
Register 0x04 Value: 0x0259
Register 0x04 Value: 0x0242
Register 0x04 Value: 0x0265
Register 0x04 Value: 0x0224
Register 0x04 Value: 0x0237
Register 0x04 Value: 0x026D
Register 0x04 Value: 0x0271
Register 0x04 Value: 0x021C
Register 0x04 Value: 0x025C
Register 0x04 Value: 0x0243
Register 0x04 Value: 0x0267
Register 0x04 Value: 0x0258
Register 0x04 Value: 0x0254
Register 0x04 Value: 0x025E
Register 0x04 Value: 0x0261
Register 0x04 Value: 0x022F
Register 0x04 Value: 0x021E
Register 0x04 Value: 0x0237
Register 0x04 Value: 0x0274
Register 0x04 Value: 0x020E
Register 0x04 Value: 0x0227
Register 0x04 Value: 0x026B
Register 0x04 Value: 0x0269
Register 0x04 Value: 0x0245
Register 0x04 Value: 0x024D
Register 0x04 Value: 0x0262
Register 0x04 Value: 0x024E
Register 0x04 Value: 0x0254
Register 0x04 Value: 0x0255
Register 0x04 Value: 0x024F
Register 0x04 Value: 0x0267
Register 0x04 Value: 0x026D
Register 0x04 Value: 0x0248
Register 0x04 Value: 0x0265
Register 0x04 Value: 0x0273
Register 0x04 Value: 0x026C
Register 0x04 Value: 0x0225
Register 0x04 Value: 0x024E
Register 0x04 Value: 0x025F
Register 0x04 Value: 0x0267
Register 0x04 Value: 0x025C
Register 0x04 Value: 0x0265
Register 0x04 Value: 0x0252
Register 0x04 Value: 0x026C
Register 0x04 Value: 0x0224
Register 0x04 Value: 0x0231
Register 0x04 Value: 0x0262
Register 0x04 Value: 0x0256
Register 0x04 Value: 0x0257
Register 0x04 Value: 0x0270
Register 0x04 Value: 0x0242
Register 0x04 Value: 0x0245
Register 0x04 Value: 0x0220
Register 0x04 Value: 0x025B
Register 0x04 Value: 0x0242
Register 0x04 Value: 0x026F
Register 0x04 Value: 0x0242
Register 0x04 Value: 0x024F
Register 0x04 Value: 0x024C
Register 0x04 Value: 0x025C
Register 0x04 Value: 0x0224
Register 0x04 Value: 0x026B
Register 0x04 Value: 0x025B
Register 0x04 Value: 0x0246
Register 0x04 Value: 0x024B
Register 0x04 Value: 0x0256
Register 0x04 Value: 0x0267
Register 0x04 Value: 0x0252
Register 0x04 Value: 0x0258
Register 0x04 Value: 0x0263
Register 0x04 Value: 0x025A
Register 0x04 Value: 0x0255
Register 0x04 Value: 0x0250
Register 0x04 Value: 0x0266
Register 0x04 Value: 0x0270
Register 0x04 Value: 0x023C
Register 0x04 Value: 0x0254
Register 0x04 Value: 0x0264
Register 0x04 Value: 0x026E
Register 0x04 Value: 0x026B
Register 0x04 Value: 0x024F
Register 0x04 Value: 0x022D
Register 0x04 Value: 0x023E
Register 0x04 Value: 0x0244
Register 0x04 Value: 0x0256
Register 0x04 Value: 0x0267
Register 0x04 Value: 0x023B
Register 0x04 Value: 0x0275
Register 0x04 Value: 0x024F
Register 0x04 Value: 0x022E
Register 0x04 Value: 0x023D
Register 0x04 Value: 0x0279
Register 0x04 Value: 0x0266
Register 0x04 Value: 0x0229
Register 0x04 Value: 0x0242
Register 0x04 Value: 0x0242
Register 0x04 Value: 0x026A
Register 0x04 Value: 0x0261
Register 0x04 Value: 0x024B
Register 0x04 Value: 0x0241
Register 0x04 Value: 0x0254
Register 0x04 Value: 0x022E
Register 0x04 Value: 0x0247
Register 0x04 Value: 0x0239
Register 0x04 Value: 0x0247
Register 0x04 Value: 0x0257
Register 0x04 Value: 0x026B
Register 0x04 Value: 0x0266
Register 0x04 Value: 0x022E
Register 0x04 Value: 0x025D
Register 0x04 Value: 0x026C
Register 0x04 Value: 0x026F
Register 0x04 Value: 0x0271
Register 0x04 Value: 0x0254
Register 0x04 Value: 0x024B
Register 0x04 Value: 0x0273
Register 0x04 Value: 0x0269
Register 0x04 Value: 0x0239
Register 0x04 Value: 0x0236
Register 0x04 Value: 0x0245
Register 0x04 Value: 0x0261
Register 0x04 Value: 0x0226
Register 0x04 Value: 0x024B
Register 0x04 Value: 0x023D
Register 0x04 Value: 0x0245
Register 0x04 Value: 0x0215
Register 0x04 Value: 0x025D
Register 0x04 Value: 0x025D
Register 0x04 Value: 0x0244
Register 0x04 Value: 0x021F
Register 0x04 Value: 0x026B
Register 0x04 Value: 0x026B
Register 0x04 Value: 0x023E
Register 0x04 Value: 0x0218
Register 0x04 Value: 0x0247
Register 0x04 Value: 0x024A
Register 0x04 Value: 0x0270
Register 0x04 Value: 0x0252
Register 0x04 Value: 0x025C
Register 0x04 Value: 0x024E
Register 0x04 Value: 0x0258
Register 0x04 Value: 0x0219
Register 0x04 Value: 0x0267
Register 0x04 Value: 0x026F
Register 0x04 Value: 0x026D
Register 0x04 Value: 0x0257
Register 0x04 Value: 0x026E
Register 0x04 Value: 0x0262
Register 0x04 Value: 0x0246
Register 0x04 Value: 0x0235
Register 0x04 Value: 0x025C
Register 0x04 Value: 0x0253
Register 0x04 Value: 0x0267
Register 0x04 Value: 0x0259
Register 0x04 Value: 0x0260
Register 0x04 Value: 0x0244
Register 0x04 Value: 0x0246
Register 0x04 Value: 0x024E
Register 0x04 Value: 0x0251
Register 0x04 Value: 0x0263
Register 0x04 Value: 0x0251
Register 0x04 Value: 0x0228
Register 0x04 Value: 0x0256
Register 0x04 Value: 0x023D
Register 0x04 Value: 0x025E
Register 0x04 Value: 0x0241
Register 0x04 Value: 0x023F
Register 0x04 Value: 0x026C
Register 0x04 Value: 0x0250
Register 0x04 Value: 0x0252
Register 0x04 Value: 0x0267
Register 0x04 Value: 0x025F
Register 0x04 Value: 0x0268
Register 0x04 Value: 0x026C
Register 0x04 Value: 0x0258
Register 0x04 Value: 0x0261
Register 0x04 Value: 0x026E
Register 0x04 Value: 0x0263
Register 0x04 Value: 0x025E
Register 0x04 Value: 0x0244
Register 0x04 Value: 0x0244




[ *				W	a	r	p	(rev. b)			* ]

[  				      Cambridge / Physcomplab   				  ]


	Supply=0mV,	Default Target Read Register=0x00

	I2C=200kb/s,	SPI=200kb/s,	UART=1kb/s,	I2C Pull-Up=32768


	SIM->SCGC6=0x20000001		RTC->SR=0x10		RTC->TSR=0x56871321

	MCG_C1=0x42			MCG_C2=0x00		MCG_S=0x06

	MCG_SC=0x00			MCG_MC=0x00		OSC_CR=0x00

	SMC_PMPROT=0x22			SMC_PMCTRL=0x40		SCB->SCR=0x00

	PMC_REGSC=0x00			SIM_SCGC4=0xF0400030	RTC->TPR=0x4859


	0s in RTC Handler to-date,	0 Pmgr Errors

Select:

- 'a': set default sensor.

- 'b': set I2C baud rate.

- 'c': set SPI baud rate.

- 'd': set UART baud rate.

- 'e': set default register address.

- 'f': write byte to sensor.

- 'g': set default SSSUPPLY.

- 'h': powerdown command to all sensors.

- 'i': set pull-up enable value.

- 'j': repeat read reg 0x00 on sensor #3.

- 'k': sleep until reset.

- 'l': send repeated byte on I2C.

- 'm': send repeated byte on SPI.

- 'n': enable SSSUPPLY.

- 'o': disable SSSUPPLY.

- 'p': switch to VLPR mode.

- 'r': switch to RUN mode.

- 's': power up all sensors.

- 't': dump processor state.

- 'u': set I2C address.

- 'x': disable SWD and spin for 10 secs.

- 'z': dump all sensors data.

Enter selection> 

###RTT Client: Shutting down...

